X--Trace 1::[interactive: TIME],Y--Trace 1::[PR1: V(2)],,X--Trace 2::[interactive: TIME],Y--Trace 2::[PR2: I(V1)]
0,0,,0,0
3.125e-7,0.0013085518526106065,,3.125e-7,-0.00000384763164232294
3.3876625938237374e-7,0.0014207685763712027,,3.3876625938237374e-7,-0.0000041710157734437435
3.912987781471212e-7,0.001635170310974931,,3.912987781471212e-7,-0.000004817750389572131
4.96363815676616e-7,0.002078659629079775,,4.96363815676616e-7,-0.000006111018229279767
7.064938907356058e-7,0.0029598005447087437,,7.064938907356058e-7,-0.000008696746676897882
0.0000011267540408535853,0.004716741600935643,,0.0000011267540408535853,-0.000013864961357782538
0.0000019672743410895443,0.008233206466906503,,0.0000019672743410895443,-0.00002418831565563227
0.000003648314941561462,0.015252907049390191,,0.000003648314941561462,-0.00004478187581283743
0.000007010396142505298,0.029256307484580548,,0.000007010396142505298,-0.00008574964095034661
0.000013734558544392968,0.05707610137978085,,0.000013734558544392968,-0.00016675406065059655
0.000027182883348168313,0.1118387784712834,,0.000027182883348168313,-0.00032461589609013476
0.000054079532955718994,0.21658120409471765,,0.000054079532955718994,-0.0006204989300918224
0.000085329532955719,0.3271947092046151,,0.000085329532955719,-0.000923053533923367
0.000116579532955719,0.4221268767136179,,0.000116579532955719,-0.001171885097704424
0.00014782953295571898,0.4980132341342001,,0.00014782953295571898,-0.0013590451271889962
0.00017907953295571898,0.5521811321396468,,0.00017907953295571898,-0.0014788124023835194
0.00021032953295571898,0.5827775638303763,,0.00021032953295571898,-0.001527925462762366
0.00024157953295571898,0.5888389540712113,,0.00024157953295571898,-0.0015057194491056318
0.000272829532955719,0.5703164779375335,,0.000272829532955719,-0.0014141621419135346
0.000304079532955719,0.5280978809717075,,0.000304079532955719,-0.0012577879014415757
0.00033532953295571904,0.4639600621951441,,0.00033532953295571904,-0.00104353213002682
0.00036657953295571907,0.38051699560107305,,0.00036657953295571907,-0.0007804726929946444
0.0003978295329557191,0.28110217366279305,,0.0003978295329557191,-0.00047948830335276964
0.0004290795329557191,0.1696518583706039,,0.0004290795329557191,-0.00015284706048710332
0.00046032953295571915,0.05056514071389849,,0.00046032953295571915,0.00018625898827790425
0.0004915795329557192,-0.0714890739855972,,0.0004915795329557192,0.0005242153250890894
0.0005228295329557192,-0.19172590352442823,,0.0005228295329557192,0.0008475031593874881
0.0005540795329557192,-0.3054435129034097,,0.0005540795329557192,0.0011432143891928533
0.0005853295329557193,-0.40819389532144856,,0.0005853295329557193,0.0013995434970705228
0.0006165795329557193,-0.4959692382267537,,0.0006165795329557193,0.0016062374418467755
0.0006478295329557193,-0.5653201586106937,,0.0006478295329557193,0.0017549862244911653
0.0006790795329557193,-0.6135377821841884,,0.0006790795329557193,0.001839739089316438
0.0007103295329557194,-0.6387153581603628,,0.0007103295329557194,0.001856934182059208
0.0007415795329557194,-0.6398236731145515,,0.0007415795329557194,0.001805632814596022
0.0007728295329557194,-0.6167953080709019,,0.0007728295329557194,0.0016875531541396221
0.0008040795329557195,-0.5704644133035621,,0.0008040795329557195,0.0015070020218052762
0.0008353295329557195,-0.5025807454753836,,0.0008353295329557195,0.0012707074028455616
0.0008665795329557195,-0.4157208308554944,,0.0008665795329557195,0.0009875580880956611
0.0008978295329557195,-0.3131938675495913,,0.0008978295329557195,0.0006682604365697544
0.0009290795329557196,-0.19890514057460196,,0.0009290795329557196,0.00032492543550678227
0.0009603295329557196,-0.07723006670461247,,0.0009603295329557196,-0.000029398085957237302
0.0009915795329557195,0.04718053102372788,,0.0009915795329557195,-0.00038122616288878544
0.0010228295329557195,0.16956654129590432,,0.0010228295329557195,-0.0007171590124123035
0.0010540795329557196,0.28524466527633074,,0.0010540795329557196,-0.0010243970159790083
0.0010853295329557196,0.3897849486775631,,0.0010853295329557196,-0.001291233546028948
0.0011165795329557196,0.47918391962034157,,0.0011165795329557196,-0.0015075057060970286
0.0011478295329557197,0.5500271644238761,,0.0011478295329557197,-0.0016649856700599662
0.0011790795329557197,0.5995931259641225,,0.0011790795329557197,-0.0017576975883095646
0.0012103295329557197,0.6259983124555697,,0.0012103295329557197,-0.001782147888463581
0.0012415795329557197,0.6282336898920949,,0.0012415795329557197,-0.0017374601258820165
0.0012728295329557198,0.6062307078586608,,0.0012728295329557198,-0.001625409206859309
0.0013040795329557198,0.5608337039091176,,0.0013040795329557198,-0.0014503536739635262
0.0013353295329557198,0.4938049151986934,,0.0013353295329557198,-0.0012190686599970427
0.0013665795329557198,0.40771734437645735,,0.0013665795329557198,-0.000940485933927556
0.0013978295329557199,0.3058967006104531,,0.0013978295329557199,-0.000625351032200133
0.00142907953295572,0.19225549594496025,,0.00142907953295572,-0.00028581065489189115
0.00146032953295572,0.07116861971811778,,0.00146032953295572,0.00006505381423003663
0.00149157953295572,-0.0527061380291427,,0.00149157953295572,0.0004137287345171645
0.00152282953295572,-0.17460404929950296,,0.00152282953295572,0.0007467872717027947
0.00155407953295572,-0.2898363947873914,,0.00155407953295572,0.0010514051480930264
0.00158532953295572,-0.39397042976258434,,0.00158532953295572,0.0013158532576743906
0.00161657953295572,-0.4829991709906287,,0.00161657953295572,0.0015299482133739413
0.00164782953295572,-0.5535009916797526,,0.00164782953295572,0.0016854435105143047
0.0016790795329557201,-0.6027618417264851,,0.0016790795329557201,0.0017763462727409056
0.0017103295329557202,-0.6288856877251627,,0.0017103295329557202,0.001799147406657884
0.0017415795329557202,-0.6308678447243636,,0.0017415795329557202,0.0017529563191873631
0.0017728295329557202,-0.6086308717631749,,0.0017728295329557202,0.0016395350193801085
0.0018040795329557202,-0.5630246752381022,,0.0018040795329557202,0.0014632302931073997
0.0018353295329557203,-0.495796774821671,,0.0018353295329557203,0.0012308065561592804
0.0018665795329557203,-0.4095383203509372,,0.0018665795329557203,0.0009511858082327607
0.0018978295329557203,-0.3075566015603973,,0.0018978295329557203,0.0006351046804318791
0.0019290795329557203,-0.19376692926521832,,0.0019290795329557203,0.00029470175502213723
0.00196032953295572,-0.07254641805946578,,0.00196032953295572,-0.0000569489841554021
0.00199157953295572,0.051450076275810525,,0.00199157953295572,-0.00040634064197783183
0.00202282953295572,0.17345915473778672,,0.00202282953295572,-0.0007400525331744046
0.0020540795329557202,0.28879170409460386,,0.0020540795329557202,-0.0010452659852706425
0.0020853295329557203,0.393017585476808,,0.0020853295329557203,-0.0013102570017839976
0.0021165795329557203,0.4821321910656388,,0.0021165795329557203,-0.001524846853319352
0.0021478295329557203,0.5527091205641532,,0.0021478295329557203,-0.0016807932809829414
0.0021790795329557204,0.6020409236325408,,0.0021790795329557204,-0.0017721072787348034
0.0022103295329557204,0.6282287402672293,,0.0022103295329557204,-0.0017952832812286837
0.0022415795329557204,0.6302718386550425,,0.0022415795329557204,-0.001749433911438944
0.0022728295329557204,0.608085021168044,,0.0022728295329557204,-0.001636324110062217
0.0023040795329557205,0.5625264959767083,,0.0023040795329557205,-0.0014603033353602858
0.0023353295329557205,0.49534733809677317,,0.0023353295329557205,-0.001228138439185172
0.0023665795329557205,0.40912595217838815,,0.0023665795329557205,-0.0009487536418666633
0.0023978295329557205,0.3071799121323631,,0.0023978295329557205,-0.0006328875987635003
0.0024290795329557206,0.19342315689620554,,0.0024290795329557206,-0.0002926807373842126
0.0024603295329557206,0.07223329751687715,,0.0024603295329557206,0.000058791276368207026
0.0024915795329557206,-0.051735256991241346,,0.0024915795329557206,0.0004080200140593408
0.0025228295329557207,-0.17371832251063327,,0.0025228295329557207,0.000741583392702843
0.0025540795329557207,-0.2890292440416181,,0.0025540795329557207,0.0010466614657133747
0.0025853295329557207,-0.3932338209544957,,0.0025853295329557207,0.0013115290751714458
0.0026165795329557207,-0.4823303749070704,,0.0026165795329557207,0.0015260064329547989
0.0026478295329557208,-0.5528873874980258,,0.0026478295329557208,0.0016818503150693445
0.002679079532955721,-0.6022038985682148,,0.002679079532955721,0.0017730708357218891
0.002710329532955721,-0.6283806391176894,,0.002710329532955721,0.0017961616276125005
0.002741579532955721,-0.6304049397478095,,0.002741579532955721,0.0017502345826813346
0.002772829532955721,-0.6082074536348129,,0.002772829532955721,0.0016370539752386473
0.002804079532955721,-0.5626391402920186,,0.002804079532955721,0.0014609686560906438
0.002835329532955721,-0.4954484793780868,,0.002835329532955721,0.0012287449233531244
0.002866579532955721,-0.4092182440149715,,0.002866579532955721,0.0009493064925884182
0.002897829532955721,-0.30726346049600606,,0.002897829532955721,0.0006333915590261042
0.002929079532955721,-0.19350247974832646,,0.002929079532955721,0.00029314013073632156
0.002960329532955721,-0.07230447793232794,,0.002960329532955721,-0.00005837250872397218
0.002991579532955721,0.0516700976324429,,0.002991579532955721,-0.00040763827945422066
0.003022829532955721,0.1736599714915486,,0.003022829532955721,-0.0007412354161799403
0.003054079532955721,0.2889738658865365,,0.003054079532955721,-0.001046344261931303
0.003085329532955721,0.3931834972086721,,0.003085329532955721,-0.0013112399227926549
0.003116579532955721,0.48228384042346467,,0.003116579532955721,-0.001525742851298818
0.003147829532955721,0.5528481149140443,,0.003147829532955721,-0.001681610042830681
0.0031790795329557212,0.6021685236536399,,0.0031790795329557212,-0.0017728518115699278
0.0032103295329557213,0.62834589061043,,0.0032103295329557213,-0.00179596197250707
0.0032415795329557213,0.630376882938827,,0.0032415795329557213,-0.0017500525837521408
0.0032728295329557213,0.6081806663092553,,0.0032728295329557213,-0.0016368880710903085
0.0033040795329557214,0.5626128965587752,,0.0033040795329557214,-0.0014608174234072577
0.0033353295329557214,0.49542211753904963,,0.0033353295329557214,-0.0012286070646874198
0.0033665795329557214,0.40919809974304827,,0.0033665795329557214,-0.0009491808252307801
0.0033978295329557214,0.30724435804750067,,0.0033978295329557214,-0.0006332770048579278
0.0034290795329557215,0.19348507438280632,,0.0034290795329557215,-0.0002930357069806764
0.0034603295329557215,0.07228816819833343,,0.0034603295329557215,0.000058467697933722156
0.0034915795329557215,-0.05168543910345216,,0.0034915795329557215,0.0004077250507602143
0.0035228295329557215,-0.17367486891513137,,0.0035228295329557215,0.0007413145140058708
0.0035540795329557216,-0.28898750886870606,,0.0035540795329557216,0.0010464163648689652
0.0035853295329557216,-0.39319620122605836,,0.0035853295329557216,0.0013113056494236754
0.0036165795329557216,-0.4822935801024283,,0.0036165795329557216,0.001525802765501559
0.0036478295329557217,-0.5528574653526594,,0.0036478295329557217,0.0016816646586178291
0.0036790795329557217,-0.6021754108642805,,0.0036790795329557217,0.0017729015974983025
0.0037103295329557217,-0.6283528453762786,,0.0037103295329557217,0.0017960073556974134
0.0037415795329557217,-0.6303817908762772,,0.0037415795329557217,0.0017500939535534678
0.0037728295329557218,-0.608186021377869,,0.0037728295329557218,0.0016369257824201844
0.003804079532955722,-0.5626188637593644,,0.003804079532955722,0.0014608517997966855
0.003835329532955722,-0.49542884728084813,,0.003835329532955722,0.0012286384010564662
0.003866579532955722,-0.40920341618248396,,0.003866579532955722,0.0009492093904187231
0.003897829532955722,-0.30724838616768324,,0.003897829532955722,0.0006333030439296881
0.0039290795329557215,-0.19348908458996963,,0.0039290795329557215,0.00029305944332925793
0.0039603295329557215,-0.07229183066922445,,0.0039603295329557215,-0.00005844606067072581
0.0039915795329557215,0.05168231881687263,,0.0039915795329557215,-0.0004077053269535654
0.0040228295329557216,0.1736703252408427,,0.0040228295329557216,-0.0007412965344421527
0.004054079532955722,0.28898608904277545,,0.004054079532955722,-0.0010463999752988826
0.004085329532955722,0.3931932076349323,,0.004085329532955722,-0.0013112907092387076
0.004116579532955722,0.48229357328056,,0.004116579532955722,-0.0015257891465276772
0.004147829532955722,0.5528580727604709,,0.004147829532955722,-0.0016816522440158683
0.004179079532955722,0.6021742652317583,,0.004179079532955722,-0.0017728902807615772
0.004210329532955722,0.6283498971885781,,0.004210329532955722,-0.0017959970397379934
0.004241579532955722,0.6303816209005224,,0.004241579532955722,-0.001750084549869228
0.004272829532955722,0.6081862755179112,,0.004272829532955722,-0.0016369172103355462
0.004304079532955722,0.5626171915576057,,0.004304079532955722,-0.0014608439857704844
0.004335329532955722,0.4954298404512835,,0.004335329532955722,-0.0012286312780510303
0.004366579532955722,0.409202417656161,,0.004366579532955722,-0.000949202897324749
0.004397829532955722,0.3072476804865533,,0.004397829532955722,-0.0006332971250419749
0.004429079532955722,0.19348806761883786,,0.004429079532955722,-0.0002930540478687979
0.004460329532955722,0.07229221351469091,,0.004460329532955722,0.00005845097899236953
0.004491579532955722,-0.05168287062585783,,0.004491579532955722,0.0004077098103313851
0.004522829532955722,-0.1736712530827942,,0.004522829532955722,0.0007413006213397083
0.004554079532955722,-0.2889833631340528,,0.004554079532955722,0.0010464037007782648
0.004585329532955722,-0.3931926266548751,,0.004585329532955722,0.0013112941052613478
0.004616579532955722,-0.4822928391364011,,0.004616579532955722,0.0015257922422285495
0.004647829532955722,-0.5528548860454261,,0.004647829532955722,0.0016816550659534426
0.004679079532955722,-0.6021755771476444,,0.004679079532955722,0.0017728928531456673
0.004710329532955722,-0.6283510930873053,,0.004710329532955722,0.0017959993846374583
0.004741579532955722,-0.6303803980902769,,0.004741579532955722,0.0017500866874013029
0.004772829532955722,-0.6081849563027784,,0.004772829532955722,0.0016369191588384302
0.004804079532955722,-0.5626157844629958,,0.004804079532955722,0.0014608457619606685
0.004835329532955722,-0.4954306662002796,,0.004835329532955722,0.0012286328971667089
0.004866579532955722,-0.4092031703813806,,0.004866579532955722,0.0009492043732565521
0.004897829532955722,-0.307247210169934,,0.004897829532955722,0.0006332984704521368
0.004929079532955722,-0.19348811486074233,,0.004929079532955722,0.0002930552742997889
0.004960329532955722,-0.07229133808644926,,0.004960329532955722,-0.000058449861018819084
0.004991579532955722,0.05168292911900113,,0.004991579532955722,-0.00040770879122401714
0.0050228295329557224,0.17367193577663204,,0.0050228295329557224,-0.000741299692355465
0.0050540795329557225,0.2889875571534345,,0.0050540795329557225,-0.0010464028539472338
0.0050853295329557225,0.39319454591560016,,0.0050853295329557225,-0.0013112933333184484
0.0051165795329557225,0.48229248026093796,,0.0051165795329557225,-0.0015257915385511708
0.0051478295329557226,0.5528568718581373,,0.0051478295329557226,-0.0016816544245046336
0.005179079532955723,0.6021752789387499,,0.005179079532955723,-0.001772892268422345
0.005210329532955723,0.6283508212500322,,0.005210329532955723,-0.0017959988516231973
0.005241579532955723,0.630380150292492,,0.005241579532955723,-0.0017500862015232932
0.005272829532955723,0.6081870433701921,,0.005272829532955723,-0.0016369187159282538
0.005304079532955723,0.5626178915061111,,0.005304079532955723,-0.0014608453582185344
0.005335329532955723,0.4954281655493701,,0.005335329532955723,-0.0012286325291288548
0.005366579532955723,0.40920068632935663,,0.005366579532955723,-0.0009492040377655322
0.005397829532955723,0.30724705420050213,,0.005397829532955723,-0.0006332981646297214
0.005429079532955723,0.19348681620841254,,0.005429079532955723,-0.0002930549955222832
0.005460329532955723,0.07229120848307222,,0.005460329532955723,0.0000584501151430878
0.005491579532955723,-0.051683047261113335,,0.005491579532955723,0.0004077090228752176
0.005522829532955723,-0.1736708869952359,,0.005522829532955723,0.0007412999035209665
0.005554079532955723,-0.2889830294208521,,0.005554079532955723,0.0010464030464386557
0.005585329532955723,-0.39319463540466476,,0.005585329532955723,0.0013112935087872027
0.005616579532955723,-0.48229256183618174,,0.005616579532955723,0.0015257916985026293
0.005647829532955723,-0.5528569462194062,,0.005647829532955723,0.0016816545703110433
0.005679079532955723,-0.6021730337723961,,0.005679079532955723,0.0017728924013346
0.005710329532955723,-0.6283531959924049,,0.005710329532955723,0.0017959989727815678
0.005741579532955723,-0.6303802066188948,,0.005741579532955723,0.0017500863119672204
0.005772829532955723,-0.6081870947154613,,0.005772829532955723,0.0016369188166052522
0.005804079532955723,-0.562617938310745,,0.005804079532955723,0.0014608454499923263
0.005835329532955723,-0.49542820821491274,,0.005835329532955723,0.0012286326127867815
0.005866579532955723,-0.40920072522183715,,0.005866579532955723,0.0009492041140252979
0.005897829532955723,-0.3072482461293904,,0.005897829532955723,0.000633298234145577
0.005929079532955723,-0.19348742676416308,,0.005929079532955723,0.0002930550588906158
0.005960329532955723,-0.0722912379429448,,0.005960329532955723,-0.00005845005737863175
0.005991579532955723,0.051683020406477126,,0.005991579532955723,-0.0004077089702190681
0.006022829532955723,0.17367201899124796,,0.006022829532955723,-0.0007412998555213786
0.006054079532955723,0.28898763300910046,,0.006054079532955723,-0.0010464030026838336
0.006085329532955723,0.39319461506309267,,0.006085329532955723,-0.0013112934689017669
0.006116579532955723,0.48229485624508717,,0.006116579532955723,-0.0015257916621443971
0.0061478295329557234,0.5528592422681045,,0.0061478295329557234,-0.0016816545371680911
0.0061790795329557235,0.6021753313158748,,0.0061790795329557235,-0.0017728923711225898
0.0062103295329557235,0.628350868995268,,0.0062103295329557235,-0.0017959989452413067
0.0062415795329557235,0.6303801938154553,,0.0062415795329557235,-0.0017500862868624369
0.0062728295329557236,0.6081870830442715,,0.0062728295329557236,-0.0016369187937205663
0.006304079532955724,0.5626179276716761,,0.006304079532955724,-0.0014608454291314067
0.006335329532955724,0.49542819851669084,,0.006335329532955724,-0.0012286325937706601
0.006366579532955724,0.4092007163812646,,0.006366579532955724,-0.0009492040966908419
0.006397829532955724,0.3072470815948173,,0.006397829532955724,-0.0006332982183440649
0.006429079532955724,0.19348799765595673,,0.006429079532955724,-0.0002930550444864838
0.006460329532955724,0.07229123124647834,,0.006460329532955724,0.00005845007050895815
0.006491579532955724,-0.05168302651075257,,0.006491579532955724,0.0004077089821882357
0.006522829532955724,-0.17367202455569497,,0.006522829532955724,0.0007412998664320591
0.006554079532955724,-0.28898301217825706,,0.006554079532955724,0.0010464030126296458
0.006585329532955724,-0.3931946196868908,,0.006585329532955724,0.001311293477968038
0.006616579532955724,-0.4822925475083889,,0.006616579532955724,0.0015257916704089177
0.006647829532955724,-0.5528569331586675,,0.006647829532955724,0.0016816545447017517
0.006679079532955724,-0.6021730218666614,,0.006679079532955724,0.0017728923779900222
0.006710329532955724,-0.6283508721879296,,0.006710329532955724,0.0017959989515014276
0.006741579532955724,-0.630380196725778,,0.006741579532955724,0.0017500862925689522
0.006772829532955724,-0.6081847727456211,,0.006772829532955724,0.0016369187989224356
0.006804079532955724,-0.5626179300900205,,0.006804079532955724,0.0014608454338732586
0.006835329532955724,-0.4954305136727771,,0.006835329532955724,0.0012286325980931747
0.006866579532955724,-0.40920303134240155,,0.006866579532955724,0.000949204100631103
