X--Trace 1::[interactive: TIME],Y--Trace 1::[PR1: V(1)],,X--Trace 2::[interactive: TIME],Y--Trace 2::[PR2: I(R2)]
0,0,,0,0
3.125e-7,0.001963494146845236,,3.125e-7,0.00000384763164232214
3.3876625938236824e-7,0.0021285295762499884,,3.3876625938236824e-7,0.000004171015773442801
3.912987781471046e-7,0.0024586002566414087,,3.912987781471046e-7,0.0000048177503895708945
4.963638156765774e-7,0.0031187407778909514,,4.963638156765774e-7,0.000006111018229277876
7.06493890735523e-7,0.00443901745537091,,7.06493890735523e-7,0.00000869674667689441
0.0000011267540408534142,0.007079545295205192,,0.0000011267540408534142,0.000013864961357774823
0.0000019672743410891966,0.012360434474917989,,0.0000019672743410891966,0.000024188315655611756
0.000003648314941560761,0.022921031344378045,,0.000003648314941560761,0.00004478187581277409
0.00000701039614250389,0.044033375944280945,,0.00000701039614250389,0.00008574964095012934
0.000013734558544390148,0.08618970571871915,,0.000013734558544390148,0.00016675406064980307
0.00002718288334816266,0.16996592731343377,,0.00002718288334816266,0.0003246158960871559
0.00005407953295570769,0.3332907344597683,,0.00005407953295570769,0.000620498930080685
0.00008532953295570769,0.5108225040143636,,0.00008532953295570769,0.0009230535338972986
0.00011657953295570769,0.6687236512122475,,0.00011657953295570769,0.0011718850976587313
0.0001478295329557077,0.8009261235185892,,0.0001478295329557077,0.0013590451271204165
0.0001790795329557077,0.902349454062656,,0.0001790795329557077,0.0014788124022902715
0.0002103295329557077,0.9690960011304987,,0.0002103295329557077,0.001527925462644152
0.0002415795329557077,0.9986007323501951,,0.0002415795329557077,0.0015057194489635887
0.0002728295329557077,0.989729797447416,,0.0002728295329557077,0.0014141621417501353
0.00030407953295570774,0.9428241014755977,,0.00030407953295570774,0.001257787901260488
0.00033532953295570777,0.8596862040259196,,0.00033532953295570777,0.0010435321298327212
0.0003665795329557078,0.7435110478731032,,0.0003665795329557078,0.0007804726927930057
0.0003978295329557078,0.5987631791163222,,0.0003978295329557078,0.0004794883031496087
0.00042907953295570785,0.43100517717636094,,0.00042907953295570785,0.00015284706028872625
0.0004603295329557079,0.24668388798799987,,0.0004603295329557079,-0.00018625898846517293
0.0004915795329557079,0.05288267532617808,,0.0004915795329557079,-0.000524215325259177
0.0005228295329557079,-0.1429507888914823,,0.0005228295329557079,-0.0008475031595348219
0.000554079532955708,-0.33329073445976987,,0.000554079532955708,-0.0011432143893126026
0.000585329532955708,-0.5108225040143652,,0.000585329532955708,-0.0013995434971587916
0.000616579532955708,-0.6687236512122487,,0.000616579532955708,-0.0016062374419007726
0.000647829532955708,-0.8009261235185902,,0.000647829532955708,-0.001754986224509327
0.0006790795329557081,-0.9023494540626568,,0.0006790795329557081,-0.001839739089298493
0.0007103295329557081,-0.9690960011304992,,0.0007103295329557081,-0.0018569341820062035
0.0007415795329557081,-0.9986007323501952,,0.0007415795329557081,-0.0018056328145102908
0.0007728295329557082,-0.9897297974474156,,0.0007728295329557082,-0.001687553154024701
0.0008040795329557082,-0.9428241014755968,,0.0008040795329557082,-0.0015070020216657782
0.0008353295329557082,-0.8596862040259182,,0.0008353295329557082,-0.0012707074026870025
0.0008665795329557082,-0.7435110478731012,,0.0008665795329557082,-0.000987558087924258
0.0008978295329557083,-0.5987631791163202,,0.0008978295329557083,-0.0006682604363921849
0.0009290795329557083,-0.4310051771763583,,0.0009290795329557083,-0.0003249254353299359
0.0009603295329557083,-0.24668388798799695,,0.0009603295329557083,0.00002939808612651788
0.0009915795329557082,-0.052882675326175986,,0.0009915795329557082,0.00038122616304396627
0.0010228295329557083,0.1429507888914848,,0.0010228295329557083,0.000717159012547411
0.0010540795329557083,0.333290734459771,,0.0010540795329557083,0.0010243970160888516
0.0010853295329557083,0.5108225040143662,,0.0010853295329557083,0.001291233546109318
0.0011165795329557084,0.6687236512122506,,0.0011165795329557084,0.0015075057061448584
0.0011478295329557084,0.8009261235185916,,0.0011478295329557084,0.0016649856700734445
0.0011790795329557084,0.9023494540626579,,0.0011790795329557084,0.0017576975882882062
0.0012103295329557084,0.9690960011304999,,0.0012103295329557084,0.0017821478884082454
0.0012415795329557085,0.9986007323501953,,0.0012415795329557085,0.0017374601257948718
0.0012728295329557085,0.9897297974474154,,0.0012728295329557085,0.001625409206743748
0.0013040795329557085,0.9428241014755965,,0.0013040795329557085,0.001450353673824036
0.0013353295329557085,0.8596862040259173,,0.0013353295329557085,0.0012190686598390302
0.0013665795329557086,0.7435110478730994,,0.0013665795329557086,0.0009404859337571392
0.0013978295329557086,0.5987631791163188,,0.0013978295329557086,0.0006253510320239128
0.0014290795329557086,0.43100517717635595,,0.0014290795329557086,0.0002858106547166843
0.0014603295329557087,0.24668388798799537,,0.0014603295329557087,-0.00006505381439745029
0.0014915795329557087,0.052882675326174335,,0.0014915795329557087,-0.00041372873467030217
0.0015228295329557087,-0.14295078889148732,,0.0015228295329557087,-0.0007467872718357335
0.0015540795329557087,-0.33329073445977336,,0.0015540795329557087,-0.0010514051482006111
0.0015853295329557088,-0.5108225040143692,,0.0015853295329557088,-0.0013158532577524451
0.0016165795329557088,-0.6687236512122532,,0.0016165795329557088,-0.0015299482134194273
0.0016478295329557088,-0.8009261235185932,,0.0016478295329557088,-0.0016854435105254325
0.0016790795329557089,-0.9023494540626585,,0.0016790795329557089,-0.0017763462727172076
0.0017103295329557089,-0.9690960011305004,,0.0017103295329557089,-0.00179914740660024
0.001741579532955709,-0.9986007323501954,,0.001741579532955709,-0.0017529563190979522
0.001772829532955709,-0.989729797447415,,0.001772829532955709,-0.0016395350192623351
0.001804079532955709,-0.9428241014755954,,0.001804079532955709,-0.0014632302929657578
0.001835329532955709,-0.8596862040259166,,0.001835329532955709,-0.0012308065559991843
0.001866579532955709,-0.7435110478730972,,0.001866579532955709,-0.0009511858080603327
0.001897829532955709,-0.598763179116316,,0.001897829532955709,-0.0006351046802537207
0.001929079532955709,-0.4310051771763545,,0.001929079532955709,-0.0002947017548450733
0.001960329532955709,-0.24668388798799376,,0.001960329532955709,0.00005694898432459337
0.001991579532955709,-0.05288267532617268,,0.001991579532955709,0.00040634064213267027
0.002022829532955709,0.14295078889148896,,0.002022829532955709,0.0007400525333089611
0.002054079532955709,0.33329073445977664,,0.002054079532955709,0.001045265985379769
0.002085329532955709,0.5108225040143707,,0.002085329532955709,0.0013102570018635154
0.002116579532955709,0.6687236512122545,,0.002116579532955709,0.001524846853366223
0.002147829532955709,0.8009261235185942,,0.002147829532955709,0.0016807932809953798
0.002179079532955709,0.9023494540626593,,0.002179079532955709,0.0017721072787123462
0.002210329532955709,0.9690960011305009,,0.002210329532955709,0.00179528328117221
0.002241579532955709,0.9986007323501955,,0.002241579532955709,0.0017494339113506368
0.002272829532955709,0.989729797447415,,0.002272829532955709,0.0016363241099454828
0.002304079532955709,0.9428241014755948,,0.002304079532955709,0.0014603033352196227
0.002335329532955709,0.8596862040259157,,0.002335329532955709,0.0012281384390259965
0.0023665795329557092,0.7435110478730972,,0.0023665795329557092,0.0009487536416951005
0.0023978295329557093,0.5987631791163162,,0.0023978295329557093,0.000632887598586157
0.0024290795329557093,0.4310051771763546,,0.0024290795329557093,0.0002926807372079111
0.0024603295329557093,0.24668388798799215,,0.0024603295329557093,-0.000058791276536686935
0.0024915795329557094,0.05288267532616748,,0.0024915795329557094,-0.00040802001421351707
0.0025228295329557094,-0.14295078889149235,,0.0025228295329557094,-0.00074158339283678
0.0025540795329557094,-0.33329073445977986,,0.0025540795329557094,-0.0010466614658219218
0.0025853295329557094,-0.5108225040143736,,0.0025853295329557094,-0.0013115290752504212
0.0026165795329557095,-0.6687236512122557,,0.0026165795329557095,-0.0015260064330011583
0.0026478295329557095,-0.8009261235185952,,0.0026478295329557095,-0.0016818503150813062
0.0026790795329557095,-0.90234945406266,,0.0026790795329557095,-0.0017730708356989884
0.0027103295329557095,-0.9690960011305018,,0.0027103295329557095,-0.0017961616275556144
0.0027415795329557096,-0.9986007323501956,,0.0027415795329557096,-0.0017502345825926421
0.0027728295329557096,-0.9897297974474144,,0.0027728295329557096,-0.001637053975121553
0.0028040795329557096,-0.9428241014755943,,0.0028040795329557096,-0.0014609686559496477
0.0028353295329557097,-0.8596862040259149,,0.0028353295329557097,-0.00122874492319364
0.0028665795329557097,-0.743511047873095,,0.0028665795329557097,-0.0009493064924165663
0.0028978295329557097,-0.5987631791163134,,0.0028978295329557097,-0.0006333915588484897
0.0029290795329557097,-0.4310051771763515,,0.0029290795329557097,-0.0002931401305597676
0.0029603295329557098,-0.24668388798799054,,0.0029603295329557098,0.000058372508892677234
0.00299157953295571,-0.05288267532616583,,0.00299157953295571,0.0004076382796086092
0.00302282953295571,0.14295078889149399,,0.00302282953295571,0.0007412354163140743
0.00305407953295571,0.33329073445977975,,0.00305407953295571,0.0010463442620400301
0.00308532953295571,0.5108225040143766,,0.00308532953295571,0.0013112399228718044
0.00311657953295571,0.6687236512122583,,0.00311657953295571,0.0015257428513453433
0.00314782953295571,0.8009261235185973,,0.00314782953295571,0.0016816100428427916
0.00317907953295571,0.9023494540626614,,0.00317907953295571,0.0017728518115471652
0.00321032953295571,0.9690960011305016,,0.00321032953295571,0.00179596197245031
0.00324157953295571,0.9986007323501959,,0.00324157953295571,0.001750052583663567
0.00327282953295571,0.989729797447414,,0.00327282953295571,0.0016368880709733255
0.00330407953295571,0.9428241014755931,,0.00330407953295571,0.001460817423266362
0.00333532953295571,0.8596862040259131,,0.00333532953295571,0.0012286070645280299
0.00336657953295571,0.7435110478730951,,0.00336657953295571,0.0009491808250590207
0.00339782953295571,0.5987631791163106,,0.00339782953295571,0.0006332770046803943
0.00342907953295571,0.4310051771763484,,0.00342907953295571,0.0002930357068041972
0.00346032953295571,0.24668388798798724,,0.00346032953295571,-0.00005846769810236459
0.0034915795329557102,0.05288267532616241,,0.0034915795329557102,-0.0004077250509145384
0.0035228295329557103,-0.1429507888914974,,0.0035228295329557103,-0.0007413145141399451
0.0035540795329557103,-0.33329073445978297,,0.0035540795329557103,-0.001046416364977637
0.0035853295329557103,-0.5108225040143765,,0.0035853295329557103,-0.0013113056495027684
0.0036165795329557104,-0.6687236512122609,,0.0036165795329557104,-0.0015258027655480377
0.0036478295329557104,-0.8009261235185993,,0.0036478295329557104,-0.0016816646586299007
0.0036790795329557104,-0.902349454062663,,0.0036790795329557104,-0.0017729015974754995
0.0037103295329557104,-0.9690960011305025,,0.0037103295329557104,-0.0017960073556406162
0.0037415795329557105,-0.9986007323501959,,0.0037415795329557105,-0.0017500939534648592
0.0037728295329557105,-0.9897297974474134,,0.0037728295329557105,-0.001636925782303169
0.0038040795329557105,-0.9428241014755919,,0.0038040795329557105,-0.0014608517996557604
0.0038353295329557105,-0.8596862040259113,,0.0038353295329557105,-0.001228638400897046
0.0038665795329557106,-0.7435110478730927,,0.0038665795329557106,-0.0009492093902469383
0.0038978295329557106,-0.5987631791163107,,0.0038978295329557106,-0.0006333030437521366
0.00392907953295571,-0.4310051771763485,,0.00392907953295571,-0.000293059443152757
0.00396032953295571,-0.2466838879879839,,0.00396032953295571,0.00005844606083939465
0.00399157953295571,-0.052882675326162525,,0.00399157953295571,0.0004077053271079075
0.00402282953295571,0.14295078889149726,,0.00402282953295571,0.0007412965345762439
0.00405407953295571,0.33329073445978286,,0.00405407953295571,0.0010463999754075637
0.00408532953295571,0.5108225040143763,,0.00408532953295571,0.0013112907093178088
0.00411657953295571,0.6687236512122607,,0.00411657953295571,0.001525789146574164
0.00414782953295571,0.8009261235185992,,0.00414782953295571,0.0016816522440279485
0.00417907953295571,0.9023494540626629,,0.00417907953295571,0.0017728902807387864
0.0042103295329557104,0.9690960011305025,,0.0042103295329557104,0.001795997039681206
0.0042415795329557105,0.9986007323501959,,0.0042415795329557105,0.0017500845497806297
0.0042728295329557105,0.9897297974474135,,0.0042728295329557105,0.0016369172102185406
0.0043040795329557105,0.942824101475592,,0.0043040795329557105,0.0014608439856295676
0.0043353295329557106,0.8596862040259114,,0.0043353295329557106,0.0012286312778916177
0.004366579532955711,0.7435110478730929,,0.004366579532955711,0.0009492028971529713
0.004397829532955711,0.5987631791163108,,0.004397829532955711,0.0006332971248644298
0.004429079532955711,0.4310051771763486,,0.004429079532955711,0.0002930540476923087
0.004460329532955711,0.24668388798798402,,0.004460329532955711,-0.00005845097916102718
0.004491579532955711,0.05288267532616265,,0.004491579532955711,-0.0004077098104857233
0.004522829532955711,-0.14295078889149715,,0.004522829532955711,-0.0007413006214737957
0.004554079532955711,-0.33329073445978274,,0.004554079532955711,-0.0010464037008869425
0.004585329532955711,-0.5108225040143762,,0.004585329532955711,-0.001311294105340446
0.004616579532955711,-0.6687236512122606,,0.004616579532955711,-0.0015257922422750338
0.004647829532955711,-0.8009261235185992,,0.004647829532955711,-0.0016816550659655206
0.004679079532955711,-0.9023494540626629,,0.004679079532955711,-0.0017728928531228747
0.004710329532955711,-0.9690960011305042,,0.004710329532955711,-0.0017959993845806724
0.004741579532955711,-0.9986007323501962,,0.004741579532955711,-0.0017500866873127027
0.004772829532955711,-0.989729797447413,,0.004772829532955711,-0.0016369191587214216
0.004804079532955711,-0.9428241014755909,,0.004804079532955711,-0.0014608457618197478
0.004835329532955711,-0.8596862040259079,,0.004835329532955711,-0.0012286328970072882
0.004866579532955711,-0.7435110478730882,,0.004866579532955711,-0.0009492043730847646
0.004897829532955711,-0.5987631791163053,,0.004897829532955711,-0.0006332984702745806
0.004929079532955711,-0.4310051771763423,,0.004929079532955711,-0.00029305527412328756
0.004960329532955711,-0.2466838879879807,,0.004960329532955711,0.0000584498611874824
0.004991579532955711,-0.05288267532615922,,0.004991579532955711,0.00040770879137836074
0.005022829532955711,0.14295078889150406,,0.005022829532955711,0.0007412996924895509
0.005054079532955711,0.33329073445978935,,0.005054079532955711,0.0010464028540559164
0.005085329532955711,0.5108225040143822,,0.005085329532955711,0.0013112933333975507
0.005116579532955711,0.6687236512122632,,0.005116579532955711,0.0015257915385976538
0.005147829532955711,0.8009261235186012,,0.005147829532955711,0.0016816544245167105
0.005179079532955711,0.9023494540626643,,0.005179079532955711,0.0017728922683995514
0.005210329532955711,0.9690960011305033,,0.005210329532955711,0.0017959988515664058
0.005241579532955711,0.998600732350196,,0.005241579532955711,0.0017500862014346921
0.005272829532955711,0.9897297974474125,,0.005272829532955711,0.0016369187158112462
0.005304079532955711,0.9428241014755897,,0.005304079532955711,0.0014608453580776156
0.0053353295329557114,0.8596862040259079,,0.0053353295329557114,0.0012286325289694406
0.0053665795329557115,0.7435110478730882,,0.0053665795329557115,0.0009492040375937489
0.0053978295329557115,0.5987631791163054,,0.0053978295329557115,0.0006332981644521704
0.0054290795329557115,0.4310051771763424,,0.0054290795329557115,0.0002930549953457874
0.0054603295329557116,0.24668388798798083,,0.0054603295329557116,-0.000058450115311745366
0.005491579532955712,0.05288267532615935,,0.005491579532955712,-0.0004077090230295556
0.005522829532955712,-0.14295078889150042,,0.005522829532955712,-0.0007412999036550407
0.005554079532955712,-0.33329073445978585,,0.005554079532955712,-0.0010464030465473276
0.005585329532955712,-0.5108225040143852,,0.005585329532955712,-0.0013112935088663076
0.005616579532955712,-0.6687236512122657,,0.005616579532955712,-0.0015257916985491138
0.005647829532955712,-0.8009261235186033,,0.005647829532955712,-0.0016816545703231209
0.005679079532955712,-0.9023494540626658,,0.005679079532955712,-0.0017728924013118066
0.005710329532955712,-0.969096001130506,,0.005710329532955712,-0.0017959989727247831
0.005741579532955712,-0.9986007323501965,,0.005741579532955712,-0.0017500863118786205
0.005772829532955712,-0.989729797447412,,0.005772829532955712,-0.0016369188164882423
0.005804079532955712,-0.9428241014755886,,0.005804079532955712,-0.0014608454498514034
0.005835329532955712,-0.8596862040259061,,0.005835329532955712,-0.0012286326126273606
0.005866579532955712,-0.743511047873086,,0.005866579532955712,-0.0009492041138535153
0.005897829532955712,-0.5987631791163026,,0.005897829532955712,-0.0006332982339680265
0.005929079532955712,-0.43100517717633935,,0.005929079532955712,-0.0002930550587141205
0.005960329532955712,-0.2466838879879775,,0.005960329532955712,0.00005845005754728903
0.005991579532955712,-0.05288267532614883,,0.005991579532955712,0.0004077089703734194
0.006022829532955712,0.14295078889151086,,0.006022829532955712,0.000741299855655465
0.006054079532955712,0.3332907344597958,,0.006054079532955712,0.0010464030027925164
0.006085329532955712,0.5108225040143881,,0.006085329532955712,0.0013112934689808696
0.006116579532955712,0.6687236512122683,,0.006116579532955712,0.0015257916621908795
0.006147829532955712,0.8009261235186053,,0.006147829532955712,0.0016816545371801674
0.006179079532955712,0.9023494540626673,,0.006179079532955712,0.0017728923710997962
0.006210329532955712,0.969096001130505,,0.006210329532955712,0.0017959989451845184
0.006241579532955712,0.9986007323501964,,0.006241579532955712,0.0017500862867738359
0.006272829532955712,0.9897297974474125,,0.006272829532955712,0.00163691879360356
0.006304079532955712,0.9428241014755898,,0.006304079532955712,0.0014608454289904923
0.006335329532955712,0.8596862040259043,,0.006335329532955712,0.0012286325936112447
0.006366579532955712,0.7435110478730836,,0.006366579532955712,0.0009492040965190577
0.006397829532955712,0.5987631791162998,,0.006397829532955712,0.0006332982181665129
0.006429079532955712,0.43100517717633624,,0.006429079532955712,0.0002930550443099876
0.0064603295329557124,0.24668388798797417,,0.0064603295329557124,-0.000058450070677616243
0.0064915795329557125,0.0528826753261525,,0.0064915795329557125,-0.00040770898234257437
0.0065228295329557125,-0.1429507888915072,,0.0065228295329557125,-0.000741299866566147
0.0065540795329557125,-0.33329073445979235,,0.0065540795329557125,-0.0010464030127383301
0.0065853295329557126,-0.510822504014385,,0.0065853295329557126,-0.0013112934780471419
0.006616579532955713,-0.6687236512122655,,0.006616579532955713,-0.0015257916704553912
0.006647829532955713,-0.800926123518603,,0.006647829532955713,-0.0016816545447138208
0.006679079532955713,-0.9023494540626688,,0.006679079532955713,-0.0017728923779672297
0.006710329532955713,-0.9690960011305059,,0.006710329532955713,-0.0017959989514446403
0.006741579532955713,-0.998600732350197,,0.006741579532955713,-0.0017500862924803538
0.006772829532955713,-0.989729797447411,,0.006772829532955713,-0.001636918798805427
0.006804079532955713,-0.9428241014755863,,0.006804079532955713,-0.0014608454337323364
0.006835329532955713,-0.8596862040259027,,0.006835329532955713,-0.0012286325979337551
0.006866579532955713,-0.7435110478730813,,0.006866579532955713,-0.0009492041004593125
0.006897829532955713,-0.5987631791162971,,0.006897829532955713,-0.0006332982217583163
